!JTI P/N: 2450AT18B100
!with Matching Circuit: 1.2pF(series), 2.7nH(shunt), 3.3nH(series)
!Agilent N5230A: A.07.11.03
!Date: Tuesday, May 08, 2007 12:12:46
!Single Port Ecal:S11(Full 1 Port(1)) 
!S1P File: Measurement: S11:

# Hz S  dB   R 50
1000000000  -2.593896e-001  -1.737081e+002 
1015000000  -2.682867e-001  -1.763811e+002 
1030000000  -2.778885e-001  -1.790370e+002 
1045000000  -2.835681e-001  1.782986e+002 
1060000000  -2.822276e-001  1.755544e+002 
1075000000  -2.970217e-001  1.728168e+002 
1090000000  -2.919286e-001  1.702005e+002 
1105000000  -2.994920e-001  1.674508e+002 
1120000000  -3.079114e-001  1.647092e+002 
1135000000  -3.081484e-001  1.619895e+002 
1150000000  -3.027652e-001  1.592357e+002 
1165000000  -3.013224e-001  1.564185e+002 
1180000000  -3.075566e-001  1.536897e+002 
1195000000  -3.116873e-001  1.508004e+002 
1210000000  -3.182715e-001  1.479522e+002 
1225000000  -3.317201e-001  1.450542e+002 
1240000000  -3.397983e-001  1.421855e+002 
1255000000  -3.329279e-001  1.393140e+002 
1270000000  -3.296416e-001  1.363464e+002 
1285000000  -3.410253e-001  1.334536e+002 
1300000000  -3.529990e-001  1.304708e+002 
1315000000  -3.561888e-001  1.275282e+002 
1330000000  -3.752421e-001  1.244039e+002 
1345000000  -3.678916e-001  1.214022e+002 
1360000000  -3.707457e-001  1.183293e+002 
1375000000  -3.809648e-001  1.151398e+002 
1390000000  -3.907720e-001  1.119884e+002 
1405000000  -4.001701e-001  1.088669e+002 
1420000000  -3.977782e-001  1.056292e+002 
1435000000  -4.070931e-001  1.024094e+002 
1450000000  -4.130600e-001  9.916917e+001 
1465000000  -4.238829e-001  9.581913e+001 
1480000000  -4.372030e-001  9.252866e+001 
1495000000  -4.482750e-001  8.906242e+001 
1510000000  -3.960789e-001  8.550550e+001 
1525000000  -4.804261e-001  8.229021e+001 
1540000000  -4.947574e-001  7.874819e+001 
1555000000  -5.002801e-001  7.524496e+001 
1570000000  -5.246346e-001  7.163480e+001 
1585000000  -5.394582e-001  6.802794e+001 
1600000000  -5.337334e-001  6.441592e+001 
1615000000  -5.601352e-001  6.063928e+001 
1630000000  -5.762517e-001  5.698055e+001 
1645000000  -5.851396e-001  5.315493e+001 
1660000000  -6.231506e-001  4.930486e+001 
1675000000  -6.491921e-001  4.548516e+001 
1690000000  -6.627114e-001  4.151871e+001 
1705000000  -6.904198e-001  3.761504e+001 
1720000000  -7.153879e-001  3.365316e+001 
1735000000  -7.390673e-001  2.956627e+001 
1750000000  -7.851350e-001  2.548481e+001 
1765000000  -8.026358e-001  2.132621e+001 
1780000000  -8.404831e-001  1.725325e+001 
1795000000  -8.784021e-001  1.307253e+001 
1810000000  -9.013289e-001  8.859119e+000 
1825000000  -9.353554e-001  4.637020e+000 
1840000000  -9.696809e-001  2.543561e-001 
1855000000  -1.001881e+000  -4.061071e+000 
1870000000  -1.055236e+000  -8.541052e+000 
1885000000  -1.081099e+000  -1.297246e+001 
1900000000  -1.129022e+000  -1.750998e+001 
1915000000  -1.174194e+000  -2.217600e+001 
1930000000  -1.210876e+000  -2.677942e+001 
1945000000  -1.271724e+000  -3.141667e+001 
1960000000  -1.319454e+000  -3.614796e+001 
1975000000  -1.381039e+000  -4.084093e+001 
1990000000  -1.453891e+000  -4.562141e+001 
2005000000  -1.537106e+000  -5.041724e+001 
2020000000  -1.626711e+000  -5.533428e+001 
2035000000  -1.703186e+000  -6.034172e+001 
2050000000  -1.798031e+000  -6.541867e+001 
2065000000  -1.876743e+000  -7.060497e+001 
2080000000  -1.964107e+000  -7.580260e+001 
2095000000  -2.083340e+000  -8.118859e+001 
2110000000  -2.234537e+000  -8.672142e+001 
2125000000  -2.418438e+000  -9.217718e+001 
2140000000  -2.625213e+000  -9.769784e+001 
2155000000  -2.827536e+000  -1.035297e+002 
2170000000  -3.095883e+000  -1.092714e+002 
2185000000  -3.397542e+000  -1.147457e+002 
2200000000  -3.727374e+000  -1.204370e+002 
2215000000  -4.059533e+000  -1.259512e+002 
2230000000  -4.439609e+000  -1.314430e+002 
2245000000  -4.775230e+000  -1.372332e+002 
2260000000  -5.270015e+000  -1.429624e+002 
2275000000  -5.747403e+000  -1.486727e+002 
2290000000  -6.259486e+000  -1.549489e+002 
2305000000  -6.924623e+000  -1.616600e+002 
2320000000  -7.607346e+000  -1.681249e+002 
2335000000  -8.489277e+000  -1.758864e+002 
2350000000  -9.758414e+000  1.763143e+002 
2365000000  -1.132767e+001  1.690072e+002 
2380000000  -1.326045e+001  1.623671e+002 
2395000000  -1.601658e+001  1.575385e+002 
2410000000  -1.961537e+001  1.587216e+002 
2425000000  -2.411609e+001  1.667310e+002 
2440000000  -2.787994e+001  -1.516566e+002 
2455000000  -2.581982e+001  -1.100859e+002 
2470000000  -2.210959e+001  -9.469289e+001 
2485000000  -1.966286e+001  -8.792483e+001 
2500000000  -1.732607e+001  -8.516249e+001 
2515000000  -1.523702e+001  -8.460215e+001 
2530000000  -1.340839e+001  -8.807864e+001 
2545000000  -1.211039e+001  -9.181787e+001 
2560000000  -1.098419e+001  -9.528001e+001 
2575000000  -1.009202e+001  -9.944382e+001 
2590000000  -9.077646e+000  -1.031375e+002 
2605000000  -8.262480e+000  -1.079205e+002 
2620000000  -7.447316e+000  -1.126383e+002 
2635000000  -6.759082e+000  -1.178529e+002 
2650000000  -6.124121e+000  -1.231758e+002 
2665000000  -5.577053e+000  -1.288231e+002 
2680000000  -5.074969e+000  -1.343046e+002 
2695000000  -4.699880e+000  -1.399120e+002 
2710000000  -4.363592e+000  -1.452059e+002 
2725000000  -4.123202e+000  -1.505772e+002 
2740000000  -3.832032e+000  -1.555038e+002 
2755000000  -3.562967e+000  -1.604740e+002 
2770000000  -3.329316e+000  -1.656773e+002 
2785000000  -3.117154e+000  -1.707880e+002 
2800000000  -2.930978e+000  -1.757236e+002 
2815000000  -2.779655e+000  1.792008e+002 
2830000000  -2.658823e+000  1.743217e+002 
2845000000  -2.539387e+000  1.694659e+002 
2860000000  -2.429008e+000  1.648779e+002 
2875000000  -2.327286e+000  1.600338e+002 
2890000000  -2.243402e+000  1.552117e+002 
2905000000  -2.168901e+000  1.505089e+002 
2920000000  -2.090613e+000  1.458784e+002 
2935000000  -2.043881e+000  1.412197e+002 
2950000000  -1.992979e+000  1.365778e+002 
2965000000  -1.965840e+000  1.320474e+002 
2980000000  -1.908209e+000  1.275196e+002 
2995000000  -1.882243e+000  1.228930e+002 
3010000000  -1.851640e+000  1.185561e+002 
3025000000  -1.818020e+000  1.139898e+002 
3040000000  -1.817224e+000  1.094926e+002 
3055000000  -1.784484e+000  1.050986e+002 
3070000000  -1.757456e+000  1.006164e+002 
3085000000  -1.738350e+000  9.623417e+001 
3100000000  -1.743416e+000  9.187383e+001 
3115000000  -1.703700e+000  8.744344e+001 
3130000000  -1.637429e+000  8.275350e+001 
3145000000  -1.679332e+000  7.857416e+001 
3160000000  -1.675738e+000  7.422105e+001 
3175000000  -1.684503e+000  6.978905e+001 
3190000000  -1.664486e+000  6.537794e+001 
3205000000  -1.653357e+000  6.109897e+001 
3220000000  -1.634260e+000  5.680518e+001 
3235000000  -1.631787e+000  5.242005e+001 
3250000000  -1.620130e+000  4.798299e+001 
3265000000  -1.609717e+000  4.378312e+001 
3280000000  -1.625538e+000  3.948015e+001 
3295000000  -1.587765e+000  3.522673e+001 
3310000000  -1.577118e+000  3.084265e+001 
3325000000  -1.587602e+000  2.662611e+001 
3340000000  -1.574359e+000  2.241744e+001 
3355000000  -1.563283e+000  1.820330e+001 
3370000000  -1.539823e+000  1.408119e+001 
3385000000  -1.523359e+000  9.949402e+000 
3400000000  -1.540075e+000  5.880909e+000 
3415000000  -1.529317e+000  1.812324e+000 
3430000000  -1.516106e+000  -2.342833e+000 
3445000000  -1.492673e+000  -6.516504e+000 
3460000000  -1.491719e+000  -1.038236e+001 
3475000000  -1.464458e+000  -1.436416e+001 
3490000000  -1.455181e+000  -1.828453e+001 
3505000000  -1.453463e+000  -2.207783e+001 
3520000000  -1.442621e+000  -2.595890e+001 
3535000000  -1.427294e+000  -2.975966e+001 
3550000000  -1.423331e+000  -3.374471e+001 
3565000000  -1.393005e+000  -3.746893e+001 
3580000000  -1.395924e+000  -4.112801e+001 
3595000000  -1.360892e+000  -4.483086e+001 
3610000000  -1.375457e+000  -4.845216e+001 
3625000000  -1.352714e+000  -5.201093e+001 
3640000000  -1.331709e+000  -5.580868e+001 
3655000000  -1.340621e+000  -5.918038e+001 
3670000000  -1.330014e+000  -6.256405e+001 
3685000000  -1.326628e+000  -6.606313e+001 
3700000000  -1.297661e+000  -6.943679e+001 
3715000000  -1.283917e+000  -7.282761e+001 
3730000000  -1.258718e+000  -7.606458e+001 
3745000000  -1.266567e+000  -7.935207e+001 
3760000000  -1.251956e+000  -8.269461e+001 
3775000000  -1.251696e+000  -8.580136e+001 
3790000000  -1.232010e+000  -8.903474e+001 
3805000000  -1.222682e+000  -9.214948e+001 
3820000000  -1.211463e+000  -9.528313e+001 
3835000000  -1.219658e+000  -9.829098e+001 
3850000000  -1.212801e+000  -1.013161e+002 
3865000000  -1.203995e+000  -1.043457e+002 
3880000000  -1.188005e+000  -1.073332e+002 
3895000000  -1.180609e+000  -1.104168e+002 
3910000000  -1.159401e+000  -1.132979e+002 
3925000000  -1.186457e+000  -1.162627e+002 
3940000000  -1.169112e+000  -1.191209e+002 
3955000000  -1.169972e+000  -1.220692e+002 
3970000000  -1.162356e+000  -1.248825e+002 
3985000000  -1.158839e+000  -1.278049e+002 
4000000000  -1.167956e+000  -1.303918e+002 
